# vsim -c top -do "run -all;exit" 
# Start time: 11:56:36 on Dec 10,2025
# ** Note: (vsim-3813) Design is being optimized due to module recompilation...
# ** Warning: top.sv(17): (vopt-2241) Connection width does not match width of port 'PSTRB'. The port definition is at: ../design/apb_master_Version_2.sv(20).
# //  Questa Sim
# //  Version 10.6c linux Jul 25 2017
# //
# //  Copyright 1991-2017 Mentor Graphics Corporation
# //  All Rights Reserved.
# //
# //  QuestaSim and its associated documentation contain trade
# //  secrets and commercial or financial information that are the property of
# //  Mentor Graphics Corporation and are privileged, confidential,
# //  and exempt from disclosure under the Freedom of Information Act,
# //  5 U.S.C. Section 552. Furthermore, this information
# //  is prohibited from disclosure under the Trade Secrets Act,
# //  18 U.S.C. Section 1905.
# //
# Loading sv_std.std
# Loading work.apb_intf(fast)
# Loading mtiUvm.uvm_pkg
# Loading work.apb_pkg(fast)
# Loading work.top(fast)
# Loading mtiUvm.questa_uvm_pkg(fast)
# Loading /tools/mentor/questasim_10.6c/questasim/uvm-1.1d/linux/uvm_dpi.so
# run -all
# ----------------------------------------------------------------
# UVM-1.1d
# (C) 2007-2013 Mentor Graphics Corporation
# (C) 2007-2013 Cadence Design Systems, Inc.
# (C) 2006-2013 Synopsys, Inc.
# (C) 2011-2013 Cypress Semiconductor Corp.
# ----------------------------------------------------------------
# 
#   ***********       IMPORTANT RELEASE NOTES         ************
# 
#   You are using a version of the UVM library that has been compiled
#   with `UVM_NO_DEPRECATED undefined.
#   See http://www.eda.org/svdb/view.php?id=3313 for more details.
# 
#   You are using a version of the UVM library that has been compiled
#   with `UVM_OBJECT_MUST_HAVE_CONSTRUCTOR undefined.
#   See http://www.eda.org/svdb/view.php?id=3770 for more details.
# 
#       (Specify +UVM_NO_RELNOTES to turn off this notice)
# 
# UVM_INFO verilog_src/questa_uvm_pkg-1.2/src/questa_uvm_pkg.sv(215) @ 0: reporter [Questa UVM] QUESTA_UVM-1.2.3
# UVM_INFO verilog_src/questa_uvm_pkg-1.2/src/questa_uvm_pkg.sv(217) @ 0: reporter [Questa UVM]  questa_uvm::init(+struct)
# UVM_INFO @ 0: reporter [RNTST] Running test apb_base_test...
# 
# Driver @(5) Type: READ
# 		presetn = 0 | transfer = 0 
# 		addr_in = 0 | wdata_in = 0 | prdata = 0  
# 		strb_in = 0 | pready = 0 | pslverr = 0
# ***********************************************************************
# 
# UVM_INFO apb_scoreboard.sv(93) @ 5: uvm_test_top.env.scb [SCB_PASS] State: IDLE | Reset: 0 | PSEL Exp/Act: 0/0 | PENABLE Exp/Act: 0/0
# 
# Driver @(15) Type: READ
# 		presetn = 0 | transfer = 0 
# 		addr_in = 185 | wdata_in = 318 | prdata = 0  
# 		strb_in = 1111 | pready = 0 | pslverr = 0
# ***********************************************************************
# 
# UVM_INFO apb_scoreboard.sv(93) @ 15: uvm_test_top.env.scb [SCB_PASS] State: IDLE | Reset: 0 | PSEL Exp/Act: 0/0 | PENABLE Exp/Act: 0/0
# 
# Driver @(25) Type: READ
# 		presetn = 1 | transfer = 1 
# 		addr_in = 171 | wdata_in = 185 | prdata = 0  
# 		strb_in = 1010 | pready = 0 | pslverr = 0
# ***********************************************************************
# 
# UVM_ERROR apb_scoreboard.sv(89) @ 25: uvm_test_top.env.scb [SCB_FAIL] State: IDLE | Reset: 1 | PSEL Exp/Act: 0/1 | PENABLE Exp/Act: 0/0
# 
# Driver @(35) Type: READ
# 		presetn = 1 | transfer = 1 
# 		addr_in = 171 | wdata_in = 185 | prdata = 0  
# 		strb_in = 1010 | pready = 0 | pslverr = 0
# ***********************************************************************
# 
# UVM_ERROR apb_scoreboard.sv(89) @ 35: uvm_test_top.env.scb [SCB_FAIL] State: SETUP | Reset: 1 | PSEL Exp/Act: 1/1 | PENABLE Exp/Act: 0/1
# UVM_ERROR apb_scoreboard.sv(99) @ 35: uvm_test_top.env.scb [SCB_ADDR] Addr matching: Exp = 171 | Act = 0
# UVM_INFO apb_scoreboard.sv(107) @ 35: uvm_test_top.env.scb [SCB_PWRITE] pwrite matching: Exp = 0 | Act = 0
# UVM_INFO apb_scoreboard.sv(119) @ 35: uvm_test_top.env.scb [SCB_PRDATA] RData match : Exp = 0 | Act = 0
# 
# Driver @(45) Type: READ
# 		presetn = 1 | transfer = 1 
# 		addr_in = 171 | wdata_in = 185 | prdata = 0  
# 		strb_in = 1010 | pready = 1 | pslverr = 0
# ***********************************************************************
# 
# UVM_ERROR apb_scoreboard.sv(89) @ 45: uvm_test_top.env.scb [SCB_FAIL] State: ACCESS | Reset: 1 | PSEL Exp/Act: 1/1 | PENABLE Exp/Act: 1/0
# UVM_INFO apb_scoreboard.sv(101) @ 45: uvm_test_top.env.scb [SCB_ADDR] Addr matching: Exp = 171 | Act = 171
# UVM_ERROR apb_scoreboard.sv(105) @ 45: uvm_test_top.env.scb [SCB_WR] Write/Read Mismatch
# UVM_INFO apb_scoreboard.sv(119) @ 45: uvm_test_top.env.scb [SCB_PRDATA] RData match : Exp = 0 | Act = 0
# 
# Driver @(55) Type: READ
# 		presetn = 1 | transfer = 1 
# 		addr_in = 193 | wdata_in = 75 | prdata = 0  
# 		strb_in = 1000 | pready = 0 | pslverr = 0
# ***********************************************************************
# 
# UVM_ERROR apb_scoreboard.sv(89) @ 55: uvm_test_top.env.scb [SCB_FAIL] State: IDLE | Reset: 1 | PSEL Exp/Act: 0/1 | PENABLE Exp/Act: 0/1
# 
# Driver @(65) Type: READ
# 		presetn = 1 | transfer = 1 
# 		addr_in = 193 | wdata_in = 75 | prdata = 0  
# 		strb_in = 1000 | pready = 0 | pslverr = 0
# ***********************************************************************
# 
# UVM_ERROR apb_scoreboard.sv(89) @ 65: uvm_test_top.env.scb [SCB_FAIL] State: SETUP | Reset: 1 | PSEL Exp/Act: 1/1 | PENABLE Exp/Act: 0/1
# UVM_ERROR apb_scoreboard.sv(99) @ 65: uvm_test_top.env.scb [SCB_ADDR] Addr matching: Exp = 193 | Act = 171
# UVM_ERROR apb_scoreboard.sv(105) @ 65: uvm_test_top.env.scb [SCB_WR] Write/Read Mismatch
# UVM_INFO apb_scoreboard.sv(119) @ 65: uvm_test_top.env.scb [SCB_PRDATA] RData match : Exp = 0 | Act = 0
# 
# Driver @(75) Type: READ
# 		presetn = 1 | transfer = 1 
# 		addr_in = 193 | wdata_in = 75 | prdata = 0  
# 		strb_in = 1000 | pready = 1 | pslverr = 0
# ***********************************************************************
# 
# UVM_ERROR apb_scoreboard.sv(89) @ 75: uvm_test_top.env.scb [SCB_FAIL] State: ACCESS | Reset: 1 | PSEL Exp/Act: 1/1 | PENABLE Exp/Act: 1/0
# UVM_ERROR apb_scoreboard.sv(99) @ 75: uvm_test_top.env.scb [SCB_ADDR] Addr matching: Exp = 193 | Act = 171
# UVM_ERROR apb_scoreboard.sv(105) @ 75: uvm_test_top.env.scb [SCB_WR] Write/Read Mismatch
# UVM_INFO apb_scoreboard.sv(119) @ 75: uvm_test_top.env.scb [SCB_PRDATA] RData match : Exp = 0 | Act = 0
# 
# Driver @(85) Type: READ
# 		presetn = 1 | transfer = 1 
# 		addr_in = 193 | wdata_in = 75 | prdata = 0  
# 		strb_in = 1000 | pready = 1 | pslverr = 0
# ***********************************************************************
# 
# UVM_ERROR apb_scoreboard.sv(89) @ 85: uvm_test_top.env.scb [SCB_FAIL] State: IDLE | Reset: 1 | PSEL Exp/Act: 0/1 | PENABLE Exp/Act: 0/1
# 
# Driver @(95) Type: READ
# 		presetn = 1 | transfer = 1 
# 		addr_in = 193 | wdata_in = 75 | prdata = 0  
# 		strb_in = 1000 | pready = 1 | pslverr = 0
# ***********************************************************************
# 
# UVM_INFO apb_scoreboard.sv(93) @ 95: uvm_test_top.env.scb [SCB_PASS] State: SETUP | Reset: 1 | PSEL Exp/Act: 1/1 | PENABLE Exp/Act: 0/0
# UVM_INFO apb_scoreboard.sv(101) @ 95: uvm_test_top.env.scb [SCB_ADDR] Addr matching: Exp = 193 | Act = 193
# UVM_ERROR apb_scoreboard.sv(105) @ 95: uvm_test_top.env.scb [SCB_WR] Write/Read Mismatch
# UVM_INFO apb_scoreboard.sv(119) @ 95: uvm_test_top.env.scb [SCB_PRDATA] RData match : Exp = 0 | Act = 0
# 
# Driver @(105) Type: READ
# 		presetn = 1 | transfer = 1 
# 		addr_in = 193 | wdata_in = 75 | prdata = 0  
# 		strb_in = 1000 | pready = 1 | pslverr = 0
# ***********************************************************************
# 
# UVM_INFO apb_scoreboard.sv(93) @ 105: uvm_test_top.env.scb [SCB_PASS] State: ACCESS | Reset: 1 | PSEL Exp/Act: 1/1 | PENABLE Exp/Act: 1/1
# UVM_INFO apb_scoreboard.sv(101) @ 105: uvm_test_top.env.scb [SCB_ADDR] Addr matching: Exp = 193 | Act = 193
# UVM_ERROR apb_scoreboard.sv(105) @ 105: uvm_test_top.env.scb [SCB_WR] Write/Read Mismatch
# UVM_INFO apb_scoreboard.sv(119) @ 105: uvm_test_top.env.scb [SCB_PRDATA] RData match : Exp = 0 | Act = 0
# 
# Driver @(115) Type: READ
# 		presetn = 1 | transfer = 1 
# 		addr_in = 193 | wdata_in = 75 | prdata = 0  
# 		strb_in = 1000 | pready = 1 | pslverr = 0
# ***********************************************************************
# 
# UVM_ERROR apb_scoreboard.sv(89) @ 115: uvm_test_top.env.scb [SCB_FAIL] State: IDLE | Reset: 1 | PSEL Exp/Act: 0/1 | PENABLE Exp/Act: 0/0
# 
# Driver @(125) Type: READ
# 		presetn = 1 | transfer = 1 
# 		addr_in = 193 | wdata_in = 75 | prdata = 0  
# 		strb_in = 1000 | pready = 1 | pslverr = 0
# ***********************************************************************
# 
# UVM_ERROR apb_scoreboard.sv(89) @ 125: uvm_test_top.env.scb [SCB_FAIL] State: SETUP | Reset: 1 | PSEL Exp/Act: 1/1 | PENABLE Exp/Act: 0/1
# UVM_INFO apb_scoreboard.sv(101) @ 125: uvm_test_top.env.scb [SCB_ADDR] Addr matching: Exp = 193 | Act = 193
# UVM_ERROR apb_scoreboard.sv(105) @ 125: uvm_test_top.env.scb [SCB_WR] Write/Read Mismatch
# UVM_INFO apb_scoreboard.sv(119) @ 125: uvm_test_top.env.scb [SCB_PRDATA] RData match : Exp = 0 | Act = 0
# 
# Driver @(135) Type: READ
# 		presetn = 1 | transfer = 1 
# 		addr_in = 193 | wdata_in = 75 | prdata = 0  
# 		strb_in = 1000 | pready = 1 | pslverr = 0
# ***********************************************************************
# 
# UVM_ERROR apb_scoreboard.sv(89) @ 135: uvm_test_top.env.scb [SCB_FAIL] State: ACCESS | Reset: 1 | PSEL Exp/Act: 1/1 | PENABLE Exp/Act: 1/0
# UVM_INFO apb_scoreboard.sv(101) @ 135: uvm_test_top.env.scb [SCB_ADDR] Addr matching: Exp = 193 | Act = 193
# UVM_ERROR apb_scoreboard.sv(105) @ 135: uvm_test_top.env.scb [SCB_WR] Write/Read Mismatch
# UVM_INFO apb_scoreboard.sv(119) @ 135: uvm_test_top.env.scb [SCB_PRDATA] RData match : Exp = 0 | Act = 0
# 
# Driver @(145) Type: READ
# 		presetn = 1 | transfer = 1 
# 		addr_in = 193 | wdata_in = 75 | prdata = 0  
# 		strb_in = 1000 | pready = 1 | pslverr = 0
# ***********************************************************************
# 
# UVM_ERROR apb_scoreboard.sv(89) @ 145: uvm_test_top.env.scb [SCB_FAIL] State: IDLE | Reset: 1 | PSEL Exp/Act: 0/1 | PENABLE Exp/Act: 0/1
# 
# Driver @(155) Type: READ
# 		presetn = 1 | transfer = 1 
# 		addr_in = 193 | wdata_in = 75 | prdata = 0  
# 		strb_in = 1000 | pready = 1 | pslverr = 0
# ***********************************************************************
# 
# UVM_INFO apb_scoreboard.sv(93) @ 155: uvm_test_top.env.scb [SCB_PASS] State: SETUP | Reset: 1 | PSEL Exp/Act: 1/1 | PENABLE Exp/Act: 0/0
# UVM_INFO apb_scoreboard.sv(101) @ 155: uvm_test_top.env.scb [SCB_ADDR] Addr matching: Exp = 193 | Act = 193
# UVM_ERROR apb_scoreboard.sv(105) @ 155: uvm_test_top.env.scb [SCB_WR] Write/Read Mismatch
# UVM_INFO apb_scoreboard.sv(119) @ 155: uvm_test_top.env.scb [SCB_PRDATA] RData match : Exp = 0 | Act = 0
# 
# Driver @(165) Type: READ
# 		presetn = 1 | transfer = 1 
# 		addr_in = 193 | wdata_in = 75 | prdata = 0  
# 		strb_in = 1000 | pready = 1 | pslverr = 0
# ***********************************************************************
# 
# UVM_INFO apb_scoreboard.sv(93) @ 165: uvm_test_top.env.scb [SCB_PASS] State: ACCESS | Reset: 1 | PSEL Exp/Act: 1/1 | PENABLE Exp/Act: 1/1
# UVM_INFO apb_scoreboard.sv(101) @ 165: uvm_test_top.env.scb [SCB_ADDR] Addr matching: Exp = 193 | Act = 193
# UVM_ERROR apb_scoreboard.sv(105) @ 165: uvm_test_top.env.scb [SCB_WR] Write/Read Mismatch
# UVM_INFO apb_scoreboard.sv(119) @ 165: uvm_test_top.env.scb [SCB_PRDATA] RData match : Exp = 0 | Act = 0
# 
# Driver @(175) Type: READ
# 		presetn = 1 | transfer = 1 
# 		addr_in = 193 | wdata_in = 75 | prdata = 0  
# 		strb_in = 1000 | pready = 1 | pslverr = 0
# ***********************************************************************
# 
# UVM_ERROR apb_scoreboard.sv(89) @ 175: uvm_test_top.env.scb [SCB_FAIL] State: IDLE | Reset: 1 | PSEL Exp/Act: 0/1 | PENABLE Exp/Act: 0/0
# UVM_INFO verilog_src/uvm-1.1d/src/base/uvm_objection.svh(1268) @ 185: reporter [TEST_DONE] 'run' phase is ready to proceed to the 'extract' phase
# UVM_INFO apb_scoreboard.sv(156) @ 185: uvm_test_top.env.scb [SCB_SUMMARY] TOTAL TRANSACTION : 18
# UVM_ERROR apb_scoreboard.sv(162) @ 185: uvm_test_top.env.scb [SCB_SUMMARY] TEST FAILED: 12 Mismatches Found
# 
# --- UVM Report Summary ---
# 
# ** Report counts by severity
# UVM_INFO :   29
# UVM_WARNING :    0
# UVM_ERROR :   25
# UVM_FATAL :    0
# ** Report counts by id
# [Questa UVM]     2
# [RNTST]     1
# [SCB_ADDR]    10
# [SCB_FAIL]    12
# [SCB_PASS]     6
# [SCB_PRDATA]    10
# [SCB_PWRITE]     1
# [SCB_SUMMARY]     2
# [SCB_WR]     9
# [TEST_DONE]     1
# ** Note: $finish    : /tools/mentor/questasim_10.6c/questasim/linux/../verilog_src/uvm-1.1d/src/base/uvm_root.svh(430)
#    Time: 185 ns  Iteration: 53  Instance: /top
# End time: 11:56:38 on Dec 10,2025, Elapsed time: 0:00:02
# Errors: 0, Warnings: 1
